T216C 3553:762 SEGGER J-Link V6.30h Log File (0001ms, 4950ms total)
T216C 3553:762 DLL Compiled: Mar 16 2018 18:02:51 (0001ms, 4950ms total)
T216C 3553:762 Logging started @ 2020-12-19 10:46 (0001ms, 4950ms total)
T216C 3553:763 JLINK_SetWarnOutHandler(...) (0000ms, 4950ms total)
T216C 3553:763 JLINK_OpenEx(...)
Firmware: J-Link V9 compiled Dec 13 2019 11:14:50
Hardware: V9.70
S/N: 59700618
Feature(s): RDI, FlashBP, FlashDL, JFlash, GDB
TELNET listener socket opened on port 19021WEBSRV 
Starting webserver (0155ms, 5105ms total)
T216C 3553:763 WEBSRV Webserver running on local port 19080 (0155ms, 5105ms total)
T216C 3553:763   returns O.K. (0155ms, 5105ms total)
T216C 3553:919 JLINK_GetEmuCaps()  returns 0xB9FF7BBF (0000ms, 5105ms total)
T216C 3553:919 JLINK_TIF_GetAvailable(...) (0000ms, 5105ms total)
T216C 3553:919 JLINK_SetErrorOutHandler(...) (0000ms, 5105ms total)
T216C 3553:919 JLINK_ExecCommand("ProjectFile = "F:\learn-106\MP4Player\MDK-ARM\JLinkSettings.ini"", ...).   returns 0x00 (0002ms, 5107ms total)
T216C 3553:927 JLINK_ExecCommand("Device = STM32F407ZETx", ...). Device "STM32F407ZE" selected.  returns 0x00 (0005ms, 5112ms total)
T216C 3553:932 JLINK_ExecCommand("DisableConnectionTimeout", ...).   returns 0x01 (0000ms, 5112ms total)
T216C 3553:932 JLINK_GetHardwareVersion()  returns 0x17AE8 (0000ms, 5112ms total)
T216C 3553:932 JLINK_GetDLLVersion()  returns 63008 (0000ms, 5112ms total)
T216C 3553:932 JLINK_GetFirmwareString(...) (0000ms, 5112ms total)
T216C 3553:951 JLINK_GetDLLVersion()  returns 63008 (0000ms, 5112ms total)
T216C 3553:951 JLINK_GetCompileDateTime() (0000ms, 5112ms total)
T216C 3553:955 JLINK_GetFirmwareString(...) (0000ms, 5112ms total)
T216C 3553:958 JLINK_GetHardwareVersion()  returns 0x17AE8 (0000ms, 5112ms total)
T216C 3553:975 JLINK_TIF_Select(JLINKARM_TIF_JTAG)  returns 0x00 (0001ms, 5113ms total)
T216C 3553:976 JLINK_SetSpeed(50000) (0000ms, 5113ms total)
T216C 3553:976 JLINK_GetIdData(...) >0x2F8 JTAG>TotalIRLen = 9, IRPrint = 0x0011 >0x30 JTAG> >0x50 JTAG>JTAG chain detection found 2 devices: #0 Id: 0x4BA00477, IRLen: 04, CoreSight JTAG-DP #1 Id: 0x06413041, IRLen: 05, STM32 Boundary Scan >0x40 JTAG> >0x40 JTAG> >0x40 JTAG> >0x30 JTAG> >0x40 JTAG> >0x40 JTAG> >0x40 JTAG> >0x40 JTAG> >0x40 JTAG> >0x40 JTAG> >0x40 JTAG> >0x40 JTAG> >0x40 JTAG> >0x40 JTAG> >0x40 JTAG> >0x40 JTAG> >0x40 JTAG> >0x40 JTAG> >0x40 JTAG> >0x40 JTAG> >0x40 JTAG> >0x40 JTAG>
 >0x40 JTAG> >0x40 JTAG> >0x2F8 JTAG>TotalIRLen = 9, IRPrint = 0x0011 >0x30 JTAG> >0x50 JTAG>JTAG chain detection found 2 devices: #0 Id: 0x4BA00477, IRLen: 04, CoreSight JTAG-DP #1 Id: 0x06413041, IRLen: 05, STM32 Boundary ScanScanning AP map to find all available APs >0x80 JTAG> >0x50 JTAG> >0x40 JTAG> >0x40 JTAG> >0x50 JTAG> >0x40 JTAG>AP[1]: Stopped AP scan as end of AP map has been reachedAP[0]: AHB-AP (IDR: 0x24770011)Iterating through AP map to find AHB-AP to use >0x80 JTAG> >0x50 JTAG>
 >0x50 JTAG> >0x80 JTAG> >0x40 JTAG> >0x30 JTAG> >0x40 JTAG> >0x40 JTAG>AP[0]: Core foundAP[0]: AHB-AP ROM base: 0xE00FF000 >0x40 JTAG> >0x40 JTAG> >0x30 JTAG> >0x40 JTAG> >0x40 JTAG>CPUID register: 0x410FC241. Implementer code: 0x41 (ARM)Found Cortex-M4 r0p1, Little endian. -- CPU_ReadMem(4 bytes @ 0xE000EDF0) -- CPU_WriteMem(4 bytes @ 0xE000EDF0) -- CPU_ReadMem(4 bytes @ 0xE0002000)FPUnit: 6 code (BP) slots and 2 literal slots -- CPU_ReadMem(4 bytes @ 0xE000EDFC) -- CPU_WriteMem(4 bytes @ 0xE000EDFC)
 -- CPU_ReadMem(4 bytes @ 0xE0001000) -- CPU_WriteMem(4 bytes @ 0xE0001000) -- CPU_ReadMem(4 bytes @ 0xE000ED88) -- CPU_WriteMem(4 bytes @ 0xE000ED88) -- CPU_ReadMem(4 bytes @ 0xE000ED88) -- CPU_WriteMem(4 bytes @ 0xE000ED88)CoreSight components:ROMTbl[0] @ E00FF000 -- CPU_ReadMem(16 bytes @ 0xE00FF000) -- CPU_ReadMem(16 bytes @ 0xE000EFF0) -- CPU_ReadMem(16 bytes @ 0xE000EFE0)ROMTbl[0][0]: E000E000, CID: B105E00D, PID: 000BB00C SCS-M7 -- CPU_ReadMem(16 bytes @ 0xE0001FF0)
 -- CPU_ReadMem(16 bytes @ 0xE0001FE0)ROMTbl[0][1]: E0001000, CID: B105E00D, PID: 003BB002 DWT -- CPU_ReadMem(16 bytes @ 0xE0002FF0) -- CPU_ReadMem(16 bytes @ 0xE0002FE0)ROMTbl[0][2]: E0002000, CID: B105E00D, PID: 002BB003 FPB -- CPU_ReadMem(16 bytes @ 0xE0000FF0) -- CPU_ReadMem(16 bytes @ 0xE0000FE0)ROMTbl[0][3]: E0000000, CID: B105E00D, PID: 003BB001 ITM -- CPU_ReadMem(16 bytes @ 0xE00FF010) -- CPU_ReadMem(16 bytes @ 0xE0040FF0) -- CPU_ReadMem(16 bytes @ 0xE0040FE0)
ROMTbl[0][4]: E0040000, CID: B105900D, PID: 000BB9A1 TPIU -- CPU_ReadMem(16 bytes @ 0xE0041FF0) -- CPU_ReadMem(16 bytes @ 0xE0041FE0)ROMTbl[0][5]: E0041000, CID: B105900D, PID: 000BB925 ETM ScanLen=9 NumDevices=2 aId[0]=0x4BA00477 aIrRead[0]=0 aScanLen[0]=0 aScanRead[0]=0 (0358ms, 5471ms total)
T216C 3554:334 JLINK_JTAG_GetDeviceID(DeviceIndex = 0)  returns 0x4BA00477 (0000ms, 5471ms total)
T216C 3554:334 JLINK_JTAG_GetDeviceInfo(DeviceIndex = 0)  returns 0x00 (0000ms, 5471ms total)
T216C 3554:334 JLINK_JTAG_GetDeviceID(DeviceIndex = 1)  returns 0x6413041 (0000ms, 5471ms total)
T216C 3554:334 JLINK_JTAG_GetDeviceInfo(DeviceIndex = 1)  returns 0x00 (0000ms, 5471ms total)
T216C 3554:334 JLINK_GetDLLVersion()  returns 63008 (0001ms, 5472ms total)
T216C 3554:335 JLINK_CORE_GetFound()  returns 0xE0000FF (0000ms, 5472ms total)
T216C 3554:335 JLINK_GetDebugInfo(0x100 = JLINKARM_ROM_TABLE_ADDR_INDEX) -- Value=0xE00FF000  returns 0x00 (0000ms, 5472ms total)
T216C 3554:357 JLINK_GetDebugInfo(0x100 = JLINKARM_ROM_TABLE_ADDR_INDEX) -- Value=0xE00FF000  returns 0x00 (0000ms, 5472ms total)
T216C 3554:357 JLINK_GetDebugInfo(0x101 = JLINKARM_DEBUG_INFO_ETM_ADDR_INDEX) -- Value=0xE0041000  returns 0x00 (0000ms, 5472ms total)
T216C 3554:357 JLINK_ReadMemEx(0xE0041FD0, 0x0020 Bytes, ..., Flags = 0x02000004) -- CPU_ReadMem(32 bytes @ 0xE0041FD0) - Data: 04 00 00 00 00 00 00 00 00 00 00 00 00 00 00 00 ...  returns 0x20 (0001ms, 5473ms total)
T216C 3554:358 JLINK_GetDebugInfo(0x102 = JLINKARM_DEBUG_INFO_MTB_ADDR_INDEX) -- Value=0x00000000  returns 0x00 (0000ms, 5473ms total)
T216C 3554:358 JLINK_GetDebugInfo(0x103 = JLINKARM_DEBUG_INFO_TPIU_ADDR_INDEX) -- Value=0xE0040000  returns 0x00 (0000ms, 5473ms total)
T216C 3554:358 JLINK_GetDebugInfo(0x104 = JLINKARM_DEBUG_INFO_ITM_ADDR_INDEX) -- Value=0xE0000000  returns 0x00 (0000ms, 5473ms total)
T216C 3554:358 JLINK_GetDebugInfo(0x105 = JLINKARM_DEBUG_INFO_DWT_ADDR_INDEX) -- Value=0xE0001000  returns 0x00 (0000ms, 5473ms total)
T216C 3554:358 JLINK_GetDebugInfo(0x106 = JLINKARM_DEBUG_INFO_FPB_ADDR_INDEX) -- Value=0xE0002000  returns 0x00 (0000ms, 5473ms total)
T216C 3554:358 JLINK_GetDebugInfo(0x107 = JLINKARM_DEBUG_INFO_NVIC_ADDR_INDEX) -- Value=0xE000E000  returns 0x00 (0000ms, 5473ms total)
T216C 3554:358 JLINK_GetDebugInfo(0x10C = JLINKARM_DEBUG_INFO_DBG_ADDR_INDEX) -- Value=0xE000EDF0  returns 0x00 (0000ms, 5473ms total)
T216C 3554:358 JLINK_GetDebugInfo(0x01 = Unknown) -- Value=0x00000001  returns 0x00 (0000ms, 5473ms total)
T216C 3554:358 JLINK_ReadMemU32(0xE000ED00, 0x0001 Items, ...) -- CPU_ReadMem(4 bytes @ 0xE000ED00) - Data: 41 C2 0F 41  returns 0x01 (0001ms, 5474ms total)
T216C 3554:359 JLINK_GetDebugInfo(0x10F = JLINKARM_DEBUG_INFO_HAS_CORTEX_M_SECURITY_EXT_INDEX) -- Value=0x00000000  returns 0x00 (0000ms, 5474ms total)
T216C 3554:359 JLINK_SetResetType(JLINKARM_CM3_RESET_TYPE_NORMAL)  returns JLINKARM_CM3_RESET_TYPE_NORMAL (0000ms, 5474ms total)
T216C 3554:359 JLINK_Reset() -- CPU is running -- CPU_WriteMem(4 bytes @ 0xE000EDF0) -- CPU is running -- CPU_WriteMem(4 bytes @ 0xE000EDFC)Reset: Halt core after reset via DEMCR.VC_CORERESET.Reset: Reset device via AIRCR.SYSRESETREQ. -- CPU is running -- CPU_WriteMem(4 bytes @ 0xE000ED0C) -- CPU_ReadMem(4 bytes @ 0xE000EDF0) -- CPU_ReadMem(4 bytes @ 0xE000EDF0) -- CPU is running -- CPU_WriteMem(4 bytes @ 0xE000EDF0) -- CPU is running -- CPU_WriteMem(4 bytes @ 0xE000EDFC)
 -- CPU_ReadMem(4 bytes @ 0xE000EDF0) -- CPU_WriteMem(4 bytes @ 0xE000EDFC) -- CPU_WriteMem(4 bytes @ 0xE0001028) -- CPU_WriteMem(4 bytes @ 0xE0001038) -- CPU_WriteMem(4 bytes @ 0xE0001048) -- CPU_WriteMem(4 bytes @ 0xE0001058) -- CPU_WriteMem(4 bytes @ 0xE0002000) -- CPU_ReadMem(4 bytes @ 0xE000EDFC) -- CPU_ReadMem(4 bytes @ 0xE0001000) (0103ms, 5577ms total)
T216C 3554:462 JLINK_Halt()  returns 0x00 (0000ms, 5577ms total)
T216C 3554:462 JLINK_ReadMemU32(0xE000EDF0, 0x0001 Items, ...) -- CPU_ReadMem(4 bytes @ 0xE000EDF0) - Data: 03 00 03 00  returns 0x01 (0001ms, 5578ms total)
T216C 3554:463 JLINK_WriteU32(0xE000EDF0, 0xA05F0003) -- CPU_WriteMem(4 bytes @ 0xE000EDF0)  returns 0x00 (0000ms, 5578ms total)
T216C 3554:463 JLINK_WriteU32(0xE000EDFC, 0x01000000) -- CPU_WriteMem(4 bytes @ 0xE000EDFC)  returns 0x00 (0001ms, 5579ms total)
T216C 3554:557 JLINK_GetHWStatus(...)  returns 0x00 (0000ms, 5579ms total)
T216C 3554:606 JLINK_GetNumBPUnits(Type = 0xFFFFFF00)  returns 0x06 (0000ms, 5579ms total)
T216C 3554:606 JLINK_GetNumBPUnits(Type = 0xF0)  returns 0x2000 (0000ms, 5579ms total)
T216C 3554:606 JLINK_GetNumWPUnits()  returns 0x04 (0000ms, 5579ms total)
T216C 3554:654 JLINK_GetSpeed()  returns 0x3A98 (0000ms, 5579ms total)
T216C 3554:694 JLINK_ReadMemU32(0xE000E004, 0x0001 Items, ...) -- CPU_ReadMem(4 bytes @ 0xE000E004) - Data: 02 00 00 00  returns 0x01 (0001ms, 5580ms total)
T216C 3554:695 JLINK_ReadMemU32(0xE000E004, 0x0001 Items, ...) -- CPU_ReadMem(4 bytes @ 0xE000E004) - Data: 02 00 00 00  returns 0x01 (0001ms, 5581ms total)
T216C 3554:696 JLINK_WriteMemEx(0xE0001000, 0x001C Bytes, ..., Flags = 0x02000004) - Data: 01 00 00 00 00 00 00 00 00 00 00 00 00 00 00 00 ... -- CPU_WriteMem(28 bytes @ 0xE0001000)  returns 0x1C (0001ms, 5582ms total)
T216C 3554:697 JLINK_Halt()  returns 0x00 (0000ms, 5582ms total)
T216C 3554:697 JLINK_IsHalted()  returns TRUE (0000ms, 5582ms total)
T216C 3554:709 JLINK_WriteMem(0x20000000, 0x0188 Bytes, ...) - Data: 00 BE 0A E0 0D 78 2D 06 68 40 08 24 40 00 00 D3 ... -- CPU_WriteMem(392 bytes @ 0x20000000)  returns 0x188 (0003ms, 5585ms total)
T216C 3554:712 JLINK_WriteReg(R0, 0x08000000)  returns 0x00 (0000ms, 5585ms total)
T216C 3554:712 JLINK_WriteReg(R1, 0x0A037A00)  returns 0x00 (0000ms, 5585ms total)
T216C 3554:712 JLINK_WriteReg(R2, 0x00000001)  returns 0x00 (0000ms, 5585ms total)
T216C 3554:712 JLINK_WriteReg(R3, 0x00000000)  returns 0x00 (0000ms, 5585ms total)
T216C 3554:712 JLINK_WriteReg(R4, 0x00000000)  returns 0x00 (0000ms, 5585ms total)
T216C 3554:712 JLINK_WriteReg(R5, 0x00000000)  returns 0x00 (0000ms, 5585ms total)
T216C 3554:712 JLINK_WriteReg(R6, 0x00000000)  returns 0x00 (0000ms, 5585ms total)
T216C 3554:712 JLINK_WriteReg(R7, 0x00000000)  returns 0x00 (0000ms, 5585ms total)
T216C 3554:712 JLINK_WriteReg(R8, 0x00000000)  returns 0x00 (0000ms, 5585ms total)
T216C 3554:712 JLINK_WriteReg(R9, 0x20000184)  returns 0x00 (0000ms, 5585ms total)
T216C 3554:712 JLINK_WriteReg(R10, 0x00000000)  returns 0x00 (0000ms, 5585ms total)
T216C 3554:712 JLINK_WriteReg(R11, 0x00000000)  returns 0x00 (0000ms, 5585ms total)
T216C 3554:712 JLINK_WriteReg(R12, 0x00000000)  returns 0x00 (0000ms, 5585ms total)
T216C 3554:712 JLINK_WriteReg(R13 (SP), 0x20001000)  returns 0x00 (0000ms, 5585ms total)
T216C 3554:713 JLINK_WriteReg(R14, 0x20000001)  returns 0x00 (0000ms, 5586ms total)
T216C 3554:713 JLINK_WriteReg(R15 (PC), 0x2000005E)  returns 0x00 (0000ms, 5586ms total)
T216C 3554:713 JLINK_WriteReg(XPSR, 0x01000000)  returns 0x00 (0000ms, 5586ms total)
T216C 3554:713 JLINK_WriteReg(MSP, 0x20001000)  returns 0x00 (0000ms, 5586ms total)
T216C 3554:713 JLINK_WriteReg(PSP, 0x20001000)  returns 0x00 (0000ms, 5586ms total)
T216C 3554:713 JLINK_WriteReg(CFBP, 0x00000000)  returns 0x00 (0000ms, 5586ms total)
T216C 3554:713 JLINK_SetBPEx(Addr = 0x20000000, Type = 0xFFFFFFF2) -- CPU_ReadMem(2 bytes @ 0x20000000)  returns 0x00000001 (0001ms, 5587ms total)
T216C 3554:714 JLINK_Go() -- CPU_WriteMem(2 bytes @ 0x20000000) -- CPU_ReadMem(4 bytes @ 0xE0001000) -- CPU_WriteMem(4 bytes @ 0xE0002008) -- CPU_WriteMem(4 bytes @ 0xE000200C) -- CPU_WriteMem(4 bytes @ 0xE0002010) -- CPU_WriteMem(4 bytes @ 0xE0002014) -- CPU_WriteMem(4 bytes @ 0xE0002018) -- CPU_WriteMem(4 bytes @ 0xE000201C) -- CPU_WriteMem(4 bytes @ 0xE0001004) (0004ms, 5591ms total)
T216C 3554:718 JLINK_IsHalted() -- CPU_ReadMem(2 bytes @ 0x20000000)  returns TRUE (0002ms, 5593ms total)
T216C 3554:720 JLINK_ReadReg(R15 (PC))  returns 0x20000000 (0000ms, 5591ms total)
T216C 3554:720 JLINK_ClrBPEx(BPHandle = 0x00000001)  returns 0x00 (0000ms, 5591ms total)
T216C 3554:720 JLINK_ReadReg(R0)  returns 0x00000000 (0000ms, 5591ms total)
T216C 3554:721 JLINK_WriteReg(R0, 0x08000000)  returns 0x00 (0000ms, 5591ms total)
T216C 3554:721 JLINK_WriteReg(R1, 0x00004000)  returns 0x00 (0000ms, 5591ms total)
T216C 3554:721 JLINK_WriteReg(R2, 0x000000FF)  returns 0x00 (0000ms, 5591ms total)
T216C 3554:721 JLINK_WriteReg(R3, 0x00000000)  returns 0x00 (0000ms, 5591ms total)
T216C 3554:721 JLINK_WriteReg(R4, 0x00000000)  returns 0x00 (0000ms, 5591ms total)
T216C 3554:721 JLINK_WriteReg(R5, 0x00000000)  returns 0x00 (0000ms, 5591ms total)
T216C 3554:721 JLINK_WriteReg(R6, 0x00000000)  returns 0x00 (0000ms, 5591ms total)
T216C 3554:721 JLINK_WriteReg(R7, 0x00000000)  returns 0x00 (0000ms, 5591ms total)
T216C 3554:721 JLINK_WriteReg(R8, 0x00000000)  returns 0x00 (0000ms, 5591ms total)
T216C 3554:721 JLINK_WriteReg(R9, 0x20000184)  returns 0x00 (0000ms, 5591ms total)
T216C 3554:721 JLINK_WriteReg(R10, 0x00000000)  returns 0x00 (0000ms, 5591ms total)
T216C 3554:722 JLINK_WriteReg(R11, 0x00000000)  returns 0x00 (0000ms, 5592ms total)
T216C 3554:722 JLINK_WriteReg(R12, 0x00000000)  returns 0x00 (0000ms, 5592ms total)
T216C 3554:722 JLINK_WriteReg(R13 (SP), 0x20001000)  returns 0x00 (0000ms, 5592ms total)
T216C 3554:722 JLINK_WriteReg(R14, 0x20000001)  returns 0x00 (0000ms, 5592ms total)
T216C 3554:722 JLINK_WriteReg(R15 (PC), 0x20000020)  returns 0x00 (0000ms, 5592ms total)
T216C 3554:722 JLINK_WriteReg(XPSR, 0x01000000)  returns 0x00 (0000ms, 5592ms total)
T216C 3554:722 JLINK_WriteReg(MSP, 0x20001000)  returns 0x00 (0000ms, 5592ms total)
T216C 3554:722 JLINK_WriteReg(PSP, 0x20001000)  returns 0x00 (0000ms, 5592ms total)
T216C 3554:722 JLINK_WriteReg(CFBP, 0x00000000)  returns 0x00 (0000ms, 5592ms total)
T216C 3554:722 JLINK_SetBPEx(Addr = 0x20000000, Type = 0xFFFFFFF2)  returns 0x00000002 (0000ms, 5592ms total)
T216C 3554:722 JLINK_Go() -- CPU_ReadMem(4 bytes @ 0xE0001000) (0002ms, 5594ms total)
T216C 3554:724 JLINK_IsHalted() -- CPU_ReadMem(2 bytes @ 0x20000000)  returns TRUE (0002ms, 5596ms total)
T216C 3554:726 JLINK_ReadReg(R15 (PC))  returns 0x20000000 (0000ms, 5594ms total)
T216C 3554:726 JLINK_ClrBPEx(BPHandle = 0x00000002)  returns 0x00 (0000ms, 5594ms total)
T216C 3554:726 JLINK_ReadReg(R0)  returns 0x00000001 (0000ms, 5594ms total)
T216C 3554:726 JLINK_WriteReg(R0, 0x08000000)  returns 0x00 (0000ms, 5594ms total)
T216C 3554:726 JLINK_WriteReg(R1, 0x00004000)  returns 0x00 (0000ms, 5594ms total)
T216C 3554:726 JLINK_WriteReg(R2, 0x000000FF)  returns 0x00 (0000ms, 5594ms total)
T216C 3554:726 JLINK_WriteReg(R3, 0x00000000)  returns 0x00 (0000ms, 5594ms total)
T216C 3554:726 JLINK_WriteReg(R4, 0x00000000)  returns 0x00 (0000ms, 5594ms total)
T216C 3554:726 JLINK_WriteReg(R5, 0x00000000)  returns 0x00 (0000ms, 5594ms total)
T216C 3554:726 JLINK_WriteReg(R6, 0x00000000)  returns 0x00 (0000ms, 5594ms total)
T216C 3554:726 JLINK_WriteReg(R7, 0x00000000)  returns 0x00 (0000ms, 5594ms total)
T216C 3554:726 JLINK_WriteReg(R8, 0x00000000)  returns 0x00 (0000ms, 5594ms total)
T216C 3554:726 JLINK_WriteReg(R9, 0x20000184)  returns 0x00 (0000ms, 5594ms total)
T216C 3554:726 JLINK_WriteReg(R10, 0x00000000)  returns 0x00 (0000ms, 5594ms total)
T216C 3554:726 JLINK_WriteReg(R11, 0x00000000)  returns 0x00 (0000ms, 5594ms total)
T216C 3554:726 JLINK_WriteReg(R12, 0x00000000)  returns 0x00 (0000ms, 5594ms total)
T216C 3554:726 JLINK_WriteReg(R13 (SP), 0x20001000)  returns 0x00 (0000ms, 5594ms total)
T216C 3554:726 JLINK_WriteReg(R14, 0x20000001)  returns 0x00 (0000ms, 5594ms total)
T216C 3554:727 JLINK_WriteReg(R15 (PC), 0x200000C6)  returns 0x00 (0000ms, 5594ms total)
T216C 3554:727 JLINK_WriteReg(XPSR, 0x01000000)  returns 0x00 (0000ms, 5594ms total)
T216C 3554:727 JLINK_WriteReg(MSP, 0x20001000)  returns 0x00 (0000ms, 5594ms total)
T216C 3554:727 JLINK_WriteReg(PSP, 0x20001000)  returns 0x00 (0000ms, 5594ms total)
T216C 3554:727 JLINK_WriteReg(CFBP, 0x00000000)  returns 0x00 (0000ms, 5594ms total)
T216C 3554:727 JLINK_SetBPEx(Addr = 0x20000000, Type = 0xFFFFFFF2)  returns 0x00000003 (0000ms, 5594ms total)
T216C 3554:727 JLINK_Go() -- CPU_ReadMem(4 bytes @ 0xE0001000) (0001ms, 5595ms total)
T216C 3554:728 JLINK_IsHalted()  returns FALSE (0002ms, 5597ms total)
T216C 3554:933 JLINK_IsHalted()  returns FALSE (0000ms, 5595ms total)
T216C 3554:935 JLINK_IsHalted()  returns FALSE (0000ms, 5595ms total)
T216C 3554:943 JLINK_IsHalted()  returns FALSE (0001ms, 5596ms total)
T216C 3554:945 JLINK_IsHalted()  returns FALSE (0001ms, 5596ms total)
T216C 3554:947 JLINK_IsHalted()  returns FALSE (0000ms, 5595ms total)
T216C 3554:949 JLINK_IsHalted()  returns FALSE (0000ms, 5595ms total)
T216C 3554:959 JLINK_IsHalted()  returns FALSE (0000ms, 5595ms total)
T216C 3554:961 JLINK_IsHalted()  returns FALSE (0000ms, 5595ms total)
T216C 3554:963 JLINK_IsHalted()  returns FALSE (0001ms, 5596ms total)
T216C 3554:966 JLINK_IsHalted()  returns FALSE (0000ms, 5595ms total)
T216C 3554:975 JLINK_IsHalted()  returns FALSE (0000ms, 5595ms total)
T216C 3554:977 JLINK_IsHalted()  returns FALSE (0000ms, 5595ms total)
T216C 3554:979 JLINK_IsHalted()  returns FALSE (0000ms, 5595ms total)
T216C 3554:981 JLINK_IsHalted()  returns FALSE (0000ms, 5595ms total)
T216C 3554:983 JLINK_IsHalted()  returns FALSE (0000ms, 5595ms total)
T216C 3554:985 JLINK_IsHalted()  returns FALSE (0000ms, 5595ms total)
T216C 3554:987 JLINK_IsHalted()  returns FALSE (0000ms, 5595ms total)
T216C 3554:989 JLINK_IsHalted()  returns FALSE (0000ms, 5595ms total)
T216C 3554:991 JLINK_IsHalted()  returns FALSE (0000ms, 5595ms total)
T216C 3554:993 JLINK_IsHalted()  returns FALSE (0001ms, 5596ms total)
T216C 3554:996 JLINK_IsHalted()  returns FALSE (0000ms, 5595ms total)
T216C 3554:998 JLINK_IsHalted()  returns FALSE (0000ms, 5595ms total)
T216C 3555:000 JLINK_IsHalted()  returns FALSE (0000ms, 5595ms total)
T216C 3555:002 JLINK_IsHalted()  returns FALSE (0000ms, 5595ms total)
T216C 3555:004 JLINK_IsHalted()  returns FALSE (0000ms, 5595ms total)
T216C 3555:006 JLINK_IsHalted()  returns FALSE (0000ms, 5595ms total)
T216C 3555:008 JLINK_IsHalted()  returns FALSE (0000ms, 5595ms total)
T216C 3555:010 JLINK_IsHalted()  returns FALSE (0000ms, 5595ms total)
T216C 3555:012 JLINK_IsHalted()  returns FALSE (0000ms, 5595ms total)
T216C 3555:020 JLINK_IsHalted()  returns FALSE (0000ms, 5595ms total)
T216C 3555:022 JLINK_IsHalted()  returns FALSE (0000ms, 5595ms total)
T216C 3555:024 JLINK_IsHalted()  returns FALSE (0000ms, 5595ms total)
T216C 3555:026 JLINK_IsHalted()  returns FALSE (0000ms, 5595ms total)
T216C 3555:029 JLINK_IsHalted()  returns FALSE (0000ms, 5595ms total)
T216C 3555:031 JLINK_IsHalted()  returns FALSE (0000ms, 5595ms total)
T216C 3555:033 JLINK_IsHalted()  returns FALSE (0000ms, 5595ms total)
T216C 3555:035 JLINK_IsHalted()  returns FALSE (0000ms, 5595ms total)
T216C 3555:037 JLINK_IsHalted()  returns FALSE (0000ms, 5595ms total)
T216C 3555:039 JLINK_IsHalted()  returns FALSE (0000ms, 5595ms total)
T216C 3555:041 JLINK_IsHalted()  returns FALSE (0000ms, 5595ms total)
T216C 3555:043 JLINK_IsHalted()  returns FALSE (0000ms, 5595ms total)
T216C 3555:045 JLINK_IsHalted()  returns FALSE (0000ms, 5595ms total)
T216C 3555:047 JLINK_IsHalted()  returns FALSE (0000ms, 5595ms total)
T216C 3555:054 JLINK_IsHalted()  returns FALSE (0000ms, 5595ms total)
T216C 3555:056 JLINK_IsHalted()  returns FALSE (0000ms, 5595ms total)
T216C 3555:059 JLINK_IsHalted()  returns FALSE (0000ms, 5595ms total)
T216C 3555:061 JLINK_IsHalted()  returns FALSE (0000ms, 5595ms total)
T216C 3555:063 JLINK_IsHalted()  returns FALSE (0000ms, 5595ms total)
T216C 3555:065 JLINK_IsHalted()  returns FALSE (0000ms, 5595ms total)
T216C 3555:067 JLINK_IsHalted()  returns FALSE (0000ms, 5595ms total)
T216C 3555:069 JLINK_IsHalted()  returns FALSE (0000ms, 5595ms total)
T216C 3555:071 JLINK_IsHalted()  returns FALSE (0000ms, 5595ms total)
T216C 3555:073 JLINK_IsHalted()  returns FALSE (0000ms, 5595ms total)
T216C 3555:085 JLINK_IsHalted() -- CPU_ReadMem(2 bytes @ 0x20000000)  returns TRUE (0002ms, 5597ms total)
T216C 3555:087 JLINK_ReadReg(R15 (PC))  returns 0x20000000 (0000ms, 5595ms total)
T216C 3555:087 JLINK_ClrBPEx(BPHandle = 0x00000003)  returns 0x00 (0000ms, 5595ms total)
T216C 3555:087 JLINK_ReadReg(R0)  returns 0x00000000 (0000ms, 5595ms total)
T216C 3555:090 JLINK_WriteReg(R0, 0x08004000)  returns 0x00 (0000ms, 5595ms total)
T216C 3555:090 JLINK_WriteReg(R1, 0x00004000)  returns 0x00 (0000ms, 5595ms total)
T216C 3555:090 JLINK_WriteReg(R2, 0x000000FF)  returns 0x00 (0000ms, 5595ms total)
T216C 3555:090 JLINK_WriteReg(R3, 0x00000000)  returns 0x00 (0000ms, 5595ms total)
T216C 3555:090 JLINK_WriteReg(R4, 0x00000000)  returns 0x00 (0000ms, 5595ms total)
T216C 3555:090 JLINK_WriteReg(R5, 0x00000000)  returns 0x00 (0000ms, 5595ms total)
T216C 3555:090 JLINK_WriteReg(R6, 0x00000000)  returns 0x00 (0000ms, 5595ms total)
T216C 3555:090 JLINK_WriteReg(R7, 0x00000000)  returns 0x00 (0000ms, 5595ms total)
T216C 3555:090 JLINK_WriteReg(R8, 0x00000000)  returns 0x00 (0000ms, 5595ms total)
T216C 3555:090 JLINK_WriteReg(R9, 0x20000184)  returns 0x00 (0000ms, 5595ms total)
T216C 3555:090 JLINK_WriteReg(R10, 0x00000000)  returns 0x00 (0000ms, 5595ms total)
T216C 3555:090 JLINK_WriteReg(R11, 0x00000000)  returns 0x00 (0000ms, 5595ms total)
T216C 3555:090 JLINK_WriteReg(R12, 0x00000000)  returns 0x00 (0000ms, 5595ms total)
T216C 3555:090 JLINK_WriteReg(R13 (SP), 0x20001000)  returns 0x00 (0000ms, 5595ms total)
T216C 3555:090 JLINK_WriteReg(R14, 0x20000001)  returns 0x00 (0000ms, 5595ms total)
T216C 3555:090 JLINK_WriteReg(R15 (PC), 0x20000020)  returns 0x00 (0000ms, 5595ms total)
T216C 3555:090 JLINK_WriteReg(XPSR, 0x01000000)  returns 0x00 (0000ms, 5595ms total)
T216C 3555:091 JLINK_WriteReg(MSP, 0x20001000)  returns 0x00 (0000ms, 5595ms total)
T216C 3555:091 JLINK_WriteReg(PSP, 0x20001000)  returns 0x00 (0000ms, 5595ms total)
T216C 3555:091 JLINK_WriteReg(CFBP, 0x00000000)  returns 0x00 (0000ms, 5595ms total)
T216C 3555:091 JLINK_SetBPEx(Addr = 0x20000000, Type = 0xFFFFFFF2)  returns 0x00000004 (0000ms, 5595ms total)
T216C 3555:091 JLINK_Go() -- CPU_ReadMem(4 bytes @ 0xE0001000) (0001ms, 5596ms total)
T216C 3555:092 JLINK_IsHalted() -- CPU_ReadMem(2 bytes @ 0x20000000)  returns TRUE (0003ms, 5599ms total)
T216C 3555:095 JLINK_ReadReg(R15 (PC))  returns 0x20000000 (0000ms, 5596ms total)
T216C 3555:095 JLINK_ClrBPEx(BPHandle = 0x00000004)  returns 0x00 (0000ms, 5596ms total)
T216C 3555:095 JLINK_ReadReg(R0)  returns 0x00000001 (0000ms, 5596ms total)
T216C 3555:095 JLINK_WriteReg(R0, 0x08004000)  returns 0x00 (0000ms, 5596ms total)
T216C 3555:095 JLINK_WriteReg(R1, 0x00004000)  returns 0x00 (0000ms, 5596ms total)
T216C 3555:095 JLINK_WriteReg(R2, 0x000000FF)  returns 0x00 (0000ms, 5596ms total)
T216C 3555:095 JLINK_WriteReg(R3, 0x00000000)  returns 0x00 (0000ms, 5596ms total)
T216C 3555:095 JLINK_WriteReg(R4, 0x00000000)  returns 0x00 (0000ms, 5596ms total)
T216C 3555:095 JLINK_WriteReg(R5, 0x00000000)  returns 0x00 (0000ms, 5596ms total)
T216C 3555:095 JLINK_WriteReg(R6, 0x00000000)  returns 0x00 (0000ms, 5596ms total)
T216C 3555:095 JLINK_WriteReg(R7, 0x00000000)  returns 0x00 (0000ms, 5596ms total)
T216C 3555:095 JLINK_WriteReg(R8, 0x00000000)  returns 0x00 (0000ms, 5596ms total)
T216C 3555:095 JLINK_WriteReg(R9, 0x20000184)  returns 0x00 (0000ms, 5596ms total)
T216C 3555:095 JLINK_WriteReg(R10, 0x00000000)  returns 0x00 (0000ms, 5596ms total)
T216C 3555:095 JLINK_WriteReg(R11, 0x00000000)  returns 0x00 (0000ms, 5596ms total)
T216C 3555:095 JLINK_WriteReg(R12, 0x00000000)  returns 0x00 (0000ms, 5596ms total)
T216C 3555:095 JLINK_WriteReg(R13 (SP), 0x20001000)  returns 0x00 (0000ms, 5596ms total)
T216C 3555:095 JLINK_WriteReg(R14, 0x20000001)  returns 0x00 (0000ms, 5596ms total)
T216C 3555:095 JLINK_WriteReg(R15 (PC), 0x200000C6)  returns 0x00 (0001ms, 5597ms total)
T216C 3555:096 JLINK_WriteReg(XPSR, 0x01000000)  returns 0x00 (0000ms, 5597ms total)
T216C 3555:096 JLINK_WriteReg(MSP, 0x20001000)  returns 0x00 (0000ms, 5597ms total)
T216C 3555:096 JLINK_WriteReg(PSP, 0x20001000)  returns 0x00 (0000ms, 5597ms total)
T216C 3555:096 JLINK_WriteReg(CFBP, 0x00000000)  returns 0x00 (0000ms, 5597ms total)
T216C 3555:096 JLINK_SetBPEx(Addr = 0x20000000, Type = 0xFFFFFFF2)  returns 0x00000005 (0000ms, 5597ms total)
T216C 3555:096 JLINK_Go() -- CPU_ReadMem(4 bytes @ 0xE0001000) (0001ms, 5598ms total)
T216C 3555:097 JLINK_IsHalted()  returns FALSE (0001ms, 5599ms total)
T216C 3555:100 JLINK_IsHalted()  returns FALSE (0001ms, 5599ms total)
T216C 3555:102 JLINK_IsHalted()  returns FALSE (0001ms, 5599ms total)
T216C 3555:104 JLINK_IsHalted()  returns FALSE (0001ms, 5600ms total)
T216C 3555:106 JLINK_IsHalted()  returns FALSE (0001ms, 5600ms total)
T216C 3555:108 JLINK_IsHalted()  returns FALSE (0001ms, 5600ms total)
T216C 3555:110 JLINK_IsHalted()  returns FALSE (0001ms, 5600ms total)
T216C 3555:112 JLINK_IsHalted()  returns FALSE (0001ms, 5600ms total)
T216C 3555:114 JLINK_IsHalted()  returns FALSE (0000ms, 5599ms total)
T216C 3555:116 JLINK_IsHalted()  returns FALSE (0000ms, 5599ms total)
T216C 3555:118 JLINK_IsHalted()  returns FALSE (0001ms, 5600ms total)
T216C 3555:120 JLINK_IsHalted()  returns FALSE (0001ms, 5600ms total)
T216C 3555:122 JLINK_IsHalted()  returns FALSE (0001ms, 5600ms total)
T216C 3555:125 JLINK_IsHalted()  returns FALSE (0001ms, 5600ms total)
T216C 3555:127 JLINK_IsHalted()  returns FALSE (0000ms, 5599ms total)
T216C 3555:129 JLINK_IsHalted()  returns FALSE (0000ms, 5599ms total)
T216C 3555:131 JLINK_IsHalted()  returns FALSE (0001ms, 5600ms total)
T216C 3555:134 JLINK_IsHalted()  returns FALSE (0000ms, 5599ms total)
T216C 3555:137 JLINK_IsHalted()  returns FALSE (0001ms, 5600ms total)
T216C 3555:144 JLINK_IsHalted()  returns FALSE (0000ms, 5599ms total)
T216C 3555:146 JLINK_IsHalted()  returns FALSE (0001ms, 5600ms total)
T216C 3555:148 JLINK_IsHalted()  returns FALSE (0000ms, 5599ms total)
T216C 3555:150 JLINK_IsHalted()  returns FALSE (0000ms, 5599ms total)
T216C 3555:152 JLINK_IsHalted()  returns FALSE (0000ms, 5599ms total)
T216C 3555:154 JLINK_IsHalted()  returns FALSE (0001ms, 5600ms total)
T216C 3555:157 JLINK_IsHalted()  returns FALSE (0001ms, 5600ms total)
T216C 3555:163 JLINK_IsHalted()  returns FALSE (0001ms, 5600ms total)
T216C 3555:165 JLINK_IsHalted()  returns FALSE (0000ms, 5599ms total)
T216C 3555:167 JLINK_IsHalted()  returns FALSE (0000ms, 5599ms total)
T216C 3555:169 JLINK_IsHalted()  returns FALSE (0000ms, 5599ms total)
T216C 3555:171 JLINK_IsHalted()  returns FALSE (0001ms, 5600ms total)
T216C 3555:173 JLINK_IsHalted()  returns FALSE (0000ms, 5599ms total)
T216C 3555:175 JLINK_IsHalted()  returns FALSE (0000ms, 5599ms total)
T216C 3555:177 JLINK_IsHalted()  returns FALSE (0001ms, 5600ms total)
T216C 3555:179 JLINK_IsHalted()  returns FALSE (0000ms, 5599ms total)
T216C 3555:181 JLINK_IsHalted()  returns FALSE (0000ms, 5599ms total)
T216C 3555:183 JLINK_IsHalted()  returns FALSE (0000ms, 5599ms total)
T216C 3555:185 JLINK_IsHalted()  returns FALSE (0001ms, 5600ms total)
T216C 3555:188 JLINK_IsHalted()  returns FALSE (0000ms, 5599ms total)
T216C 3555:190 JLINK_IsHalted()  returns FALSE (0000ms, 5599ms total)
T216C 3555:192 JLINK_IsHalted()  returns FALSE (0000ms, 5599ms total)
T216C 3555:194 JLINK_IsHalted()  returns FALSE (0001ms, 5600ms total)
T216C 3555:196 JLINK_IsHalted()  returns FALSE (0001ms, 5600ms total)
T216C 3555:198 JLINK_IsHalted()  returns FALSE (0001ms, 5600ms total)
T216C 3555:200 JLINK_IsHalted()  returns FALSE (0000ms, 5599ms total)
T216C 3555:207 JLINK_IsHalted()  returns FALSE (0001ms, 5600ms total)
T216C 3555:209 JLINK_IsHalted()  returns FALSE (0001ms, 5600ms total)
T216C 3555:211 JLINK_IsHalted()  returns FALSE (0001ms, 5600ms total)
T216C 3555:213 JLINK_IsHalted()  returns FALSE (0001ms, 5600ms total)
T216C 3555:215 JLINK_IsHalted()  returns FALSE (0001ms, 5600ms total)
T216C 3555:217 JLINK_IsHalted()  returns FALSE (0001ms, 5600ms total)
T216C 3555:220 JLINK_IsHalted()  returns FALSE (0001ms, 5600ms total)
T216C 3555:222 JLINK_IsHalted()  returns FALSE (0001ms, 5600ms total)
T216C 3555:224 JLINK_IsHalted()  returns FALSE (0001ms, 5600ms total)
T216C 3555:226 JLINK_IsHalted()  returns FALSE (0000ms, 5599ms total)
T216C 3555:228 JLINK_IsHalted()  returns FALSE (0001ms, 5600ms total)
T216C 3555:230 JLINK_IsHalted()  returns FALSE (0001ms, 5600ms total)
T216C 3555:233 JLINK_IsHalted()  returns FALSE (0000ms, 5599ms total)
T216C 3555:235 JLINK_IsHalted()  returns FALSE (0000ms, 5599ms total)
T216C 3555:237 JLINK_IsHalted()  returns FALSE (0000ms, 5599ms total)
T216C 3555:239 JLINK_IsHalted()  returns FALSE (0000ms, 5599ms total)
T216C 3555:241 JLINK_IsHalted()  returns FALSE (0001ms, 5600ms total)
T216C 3555:243 JLINK_IsHalted()  returns FALSE (0000ms, 5599ms total)
T216C 3555:246 JLINK_IsHalted()  returns FALSE (0000ms, 5599ms total)
T216C 3555:248 JLINK_IsHalted()  returns FALSE (0000ms, 5599ms total)
T216C 3555:250 JLINK_IsHalted()  returns FALSE (0000ms, 5599ms total)
T216C 3555:252 JLINK_IsHalted()  returns FALSE (0000ms, 5599ms total)
T216C 3555:254 JLINK_IsHalted()  returns FALSE (0000ms, 5599ms total)
T216C 3555:256 JLINK_IsHalted()  returns FALSE (0000ms, 5599ms total)
T216C 3555:259 JLINK_IsHalted()  returns FALSE (0000ms, 5599ms total)
T216C 3555:261 JLINK_IsHalted()  returns FALSE (0001ms, 5600ms total)
T216C 3555:272 JLINK_IsHalted()  returns FALSE (0001ms, 5600ms total)
T216C 3555:274 JLINK_IsHalted()  returns FALSE (0000ms, 5599ms total)
T216C 3555:276 JLINK_IsHalted()  returns FALSE (0001ms, 5600ms total)
T216C 3555:278 JLINK_IsHalted()  returns FALSE (0000ms, 5599ms total)
T216C 3555:280 JLINK_IsHalted()  returns FALSE (0000ms, 5599ms total)
T216C 3555:283 JLINK_IsHalted()  returns FALSE (0000ms, 5599ms total)
T216C 3555:286 JLINK_IsHalted()  returns FALSE (0000ms, 5599ms total)
T216C 3555:288 JLINK_IsHalted()  returns FALSE (0000ms, 5599ms total)
T216C 3555:290 JLINK_IsHalted()  returns FALSE (0000ms, 5599ms total)
T216C 3555:293 JLINK_IsHalted()  returns FALSE (0000ms, 5599ms total)
T216C 3555:295 JLINK_IsHalted()  returns FALSE (0000ms, 5599ms total)
T216C 3555:303 JLINK_IsHalted()  returns FALSE (0000ms, 5599ms total)
T216C 3555:305 JLINK_IsHalted()  returns FALSE (0000ms, 5599ms total)
T216C 3555:307 JLINK_IsHalted()  returns FALSE (0000ms, 5599ms total)
T216C 3555:309 JLINK_IsHalted()  returns FALSE (0000ms, 5599ms total)
T216C 3555:312 JLINK_IsHalted()  returns FALSE (0000ms, 5599ms total)
T216C 3555:314 JLINK_IsHalted()  returns FALSE (0001ms, 5600ms total)
T216C 3555:317 JLINK_IsHalted()  returns FALSE (0000ms, 5599ms total)
T216C 3555:350 JLINK_IsHalted()  returns FALSE (0000ms, 5599ms total)
T216C 3555:358 JLINK_IsHalted()  returns FALSE (0000ms, 5599ms total)
T216C 3555:360 JLINK_IsHalted()  returns FALSE (0000ms, 5599ms total)
T216C 3555:369 JLINK_IsHalted()  returns FALSE (0001ms, 5600ms total)
T216C 3555:372 JLINK_IsHalted()  returns FALSE (0000ms, 5599ms total)
T216C 3555:384 JLINK_IsHalted()  returns FALSE (0000ms, 5599ms total)
T216C 3555:392 JLINK_IsHalted()  returns FALSE (0001ms, 5600ms total)
T216C 3555:395 JLINK_IsHalted()  returns FALSE (0000ms, 5599ms total)
T216C 3555:402 JLINK_IsHalted()  returns FALSE (0000ms, 5599ms total)
T216C 3555:404 JLINK_IsHalted()  returns FALSE (0000ms, 5599ms total)
T216C 3555:406 JLINK_IsHalted()  returns FALSE (0000ms, 5599ms total)
T216C 3555:436 JLINK_IsHalted() -- CPU_ReadMem(2 bytes @ 0x20000000)  returns TRUE (0002ms, 5601ms total)
T216C 3555:438 JLINK_ReadReg(R15 (PC))  returns 0x20000000 (0000ms, 5599ms total)
T216C 3555:438 JLINK_ClrBPEx(BPHandle = 0x00000005)  returns 0x00 (0000ms, 5599ms total)
T216C 3555:438 JLINK_ReadReg(R0)  returns 0x00000000 (0000ms, 5599ms total)
T216C 3555:439 JLINK_WriteReg(R0, 0x00000001)  returns 0x00 (0000ms, 5599ms total)
T216C 3555:439 JLINK_WriteReg(R1, 0x00004000)  returns 0x00 (0000ms, 5599ms total)
T216C 3555:439 JLINK_WriteReg(R2, 0x000000FF)  returns 0x00 (0000ms, 5599ms total)
T216C 3555:439 JLINK_WriteReg(R3, 0x00000000)  returns 0x00 (0000ms, 5599ms total)
T216C 3555:439 JLINK_WriteReg(R4, 0x00000000)  returns 0x00 (0000ms, 5599ms total)
T216C 3555:439 JLINK_WriteReg(R5, 0x00000000)  returns 0x00 (0000ms, 5599ms total)
T216C 3555:439 JLINK_WriteReg(R6, 0x00000000)  returns 0x00 (0000ms, 5599ms total)
T216C 3555:439 JLINK_WriteReg(R7, 0x00000000)  returns 0x00 (0000ms, 5599ms total)
T216C 3555:439 JLINK_WriteReg(R8, 0x00000000)  returns 0x00 (0000ms, 5599ms total)
T216C 3555:439 JLINK_WriteReg(R9, 0x20000184)  returns 0x00 (0000ms, 5599ms total)
T216C 3555:439 JLINK_WriteReg(R10, 0x00000000)  returns 0x00 (0000ms, 5599ms total)
T216C 3555:439 JLINK_WriteReg(R11, 0x00000000)  returns 0x00 (0000ms, 5599ms total)
T216C 3555:440 JLINK_WriteReg(R12, 0x00000000)  returns 0x00 (0000ms, 5599ms total)
T216C 3555:440 JLINK_WriteReg(R13 (SP), 0x20001000)  returns 0x00 (0000ms, 5599ms total)
T216C 3555:440 JLINK_WriteReg(R14, 0x20000001)  returns 0x00 (0000ms, 5599ms total)
T216C 3555:440 JLINK_WriteReg(R15 (PC), 0x2000008C)  returns 0x00 (0000ms, 5599ms total)
T216C 3555:440 JLINK_WriteReg(XPSR, 0x01000000)  returns 0x00 (0000ms, 5599ms total)
T216C 3555:440 JLINK_WriteReg(MSP, 0x20001000)  returns 0x00 (0000ms, 5599ms total)
T216C 3555:440 JLINK_WriteReg(PSP, 0x20001000)  returns 0x00 (0000ms, 5599ms total)
T216C 3555:440 JLINK_WriteReg(CFBP, 0x00000000)  returns 0x00 (0000ms, 5599ms total)
T216C 3555:440 JLINK_SetBPEx(Addr = 0x20000000, Type = 0xFFFFFFF2)  returns 0x00000006 (0000ms, 5599ms total)
T216C 3555:440 JLINK_Go() -- CPU_ReadMem(4 bytes @ 0xE0001000) (0002ms, 5601ms total)
T216C 3555:442 JLINK_IsHalted() -- CPU_ReadMem(2 bytes @ 0x20000000)  returns TRUE (0003ms, 5604ms total)
T216C 3555:445 JLINK_ReadReg(R15 (PC))  returns 0x20000000 (0000ms, 5601ms total)
T216C 3555:445 JLINK_ClrBPEx(BPHandle = 0x00000006)  returns 0x00 (0000ms, 5601ms total)
T216C 3555:445 JLINK_ReadReg(R0)  returns 0x00000000 (0000ms, 5601ms total)
T216C 3555:534 JLINK_WriteMem(0x20000000, 0x0188 Bytes, ...) - Data: 00 BE 0A E0 0D 78 2D 06 68 40 08 24 40 00 00 D3 ... -- CPU_WriteMem(392 bytes @ 0x20000000)  returns 0x188 (0001ms, 5602ms total)
T216C 3555:535 JLINK_WriteReg(R0, 0x08000000)  returns 0x00 (0000ms, 5602ms total)
T216C 3555:535 JLINK_WriteReg(R1, 0x0A037A00)  returns 0x00 (0000ms, 5602ms total)
T216C 3555:535 JLINK_WriteReg(R2, 0x00000002)  returns 0x00 (0000ms, 5602ms total)
T216C 3555:535 JLINK_WriteReg(R3, 0x00000000)  returns 0x00 (0000ms, 5602ms total)
T216C 3555:535 JLINK_WriteReg(R4, 0x00000000)  returns 0x00 (0000ms, 5602ms total)
T216C 3555:535 JLINK_WriteReg(R5, 0x00000000)  returns 0x00 (0001ms, 5603ms total)
T216C 3555:536 JLINK_WriteReg(R6, 0x00000000)  returns 0x00 (0000ms, 5603ms total)
T216C 3555:536 JLINK_WriteReg(R7, 0x00000000)  returns 0x00 (0000ms, 5603ms total)
T216C 3555:536 JLINK_WriteReg(R8, 0x00000000)  returns 0x00 (0000ms, 5603ms total)
T216C 3555:536 JLINK_WriteReg(R9, 0x20000184)  returns 0x00 (0000ms, 5603ms total)
T216C 3555:536 JLINK_WriteReg(R10, 0x00000000)  returns 0x00 (0000ms, 5603ms total)
T216C 3555:536 JLINK_WriteReg(R11, 0x00000000)  returns 0x00 (0000ms, 5603ms total)
T216C 3555:536 JLINK_WriteReg(R12, 0x00000000)  returns 0x00 (0000ms, 5603ms total)
T216C 3555:536 JLINK_WriteReg(R13 (SP), 0x20001000)  returns 0x00 (0000ms, 5603ms total)
T216C 3555:536 JLINK_WriteReg(R14, 0x20000001)  returns 0x00 (0000ms, 5603ms total)
T216C 3555:536 JLINK_WriteReg(R15 (PC), 0x2000005E)  returns 0x00 (0000ms, 5603ms total)
T216C 3555:536 JLINK_WriteReg(XPSR, 0x01000000)  returns 0x00 (0000ms, 5603ms total)
T216C 3555:536 JLINK_WriteReg(MSP, 0x20001000)  returns 0x00 (0000ms, 5603ms total)
T216C 3555:536 JLINK_WriteReg(PSP, 0x20001000)  returns 0x00 (0000ms, 5603ms total)
T216C 3555:536 JLINK_WriteReg(CFBP, 0x00000000)  returns 0x00 (0000ms, 5603ms total)
T216C 3555:536 JLINK_SetBPEx(Addr = 0x20000000, Type = 0xFFFFFFF2) -- CPU_ReadMem(2 bytes @ 0x20000000)  returns 0x00000007 (0001ms, 5604ms total)
T216C 3555:537 JLINK_Go() -- CPU_WriteMem(2 bytes @ 0x20000000) -- CPU_ReadMem(4 bytes @ 0xE0001000) (0002ms, 5606ms total)
T216C 3555:539 JLINK_IsHalted() -- CPU_ReadMem(2 bytes @ 0x20000000)  returns TRUE (0002ms, 5608ms total)
T216C 3555:541 JLINK_ReadReg(R15 (PC))  returns 0x20000000 (0001ms, 5607ms total)
T216C 3555:542 JLINK_ClrBPEx(BPHandle = 0x00000007)  returns 0x00 (0000ms, 5607ms total)
T216C 3555:542 JLINK_ReadReg(R0)  returns 0x00000000 (0000ms, 5607ms total)
T216C 3555:543 JLINK_WriteMem(0x20000188, 0x0278 Bytes, ...) - Data: 68 4D 00 20 5D 02 00 08 51 07 00 08 53 07 00 08 ... -- CPU_WriteMem(632 bytes @ 0x20000188)  returns 0x278 (0002ms, 5609ms total)
T216C 3555:545 JLINK_WriteMem(0x20000400, 0x0188 Bytes, ...) - Data: 7D 14 00 08 89 01 00 08 00 BF FE E7 16 E0 84 A0 ... -- CPU_WriteMem(392 bytes @ 0x20000400)  returns 0x188 (0001ms, 5610ms total)
T216C 3555:546 JLINK_WriteReg(R0, 0x08000000)  returns 0x00 (0000ms, 5610ms total)
T216C 3555:546 JLINK_WriteReg(R1, 0x00000400)  returns 0x00 (0000ms, 5610ms total)
T216C 3555:546 JLINK_WriteReg(R2, 0x20000188)  returns 0x00 (0000ms, 5610ms total)
T216C 3555:546 JLINK_WriteReg(R3, 0x00000000)  returns 0x00 (0000ms, 5610ms total)
T216C 3555:546 JLINK_WriteReg(R4, 0x00000000)  returns 0x00 (0000ms, 5610ms total)
T216C 3555:546 JLINK_WriteReg(R5, 0x00000000)  returns 0x00 (0000ms, 5610ms total)
T216C 3555:546 JLINK_WriteReg(R6, 0x00000000)  returns 0x00 (0000ms, 5610ms total)
T216C 3555:546 JLINK_WriteReg(R7, 0x00000000)  returns 0x00 (0000ms, 5610ms total)
T216C 3555:546 JLINK_WriteReg(R8, 0x00000000)  returns 0x00 (0000ms, 5610ms total)
T216C 3555:546 JLINK_WriteReg(R9, 0x20000184)  returns 0x00 (0000ms, 5610ms total)
T216C 3555:546 JLINK_WriteReg(R10, 0x00000000)  returns 0x00 (0000ms, 5610ms total)
T216C 3555:546 JLINK_WriteReg(R11, 0x00000000)  returns 0x00 (0000ms, 5610ms total)
T216C 3555:546 JLINK_WriteReg(R12, 0x00000000)  returns 0x00 (0000ms, 5610ms total)
T216C 3555:546 JLINK_WriteReg(R13 (SP), 0x20001000)  returns 0x00 (0000ms, 5610ms total)
T216C 3555:546 JLINK_WriteReg(R14, 0x20000001)  returns 0x00 (0000ms, 5610ms total)
T216C 3555:547 JLINK_WriteReg(R15 (PC), 0x20000112)  returns 0x00 (0000ms, 5611ms total)
T216C 3555:547 JLINK_WriteReg(XPSR, 0x01000000)  returns 0x00 (0000ms, 5611ms total)
T216C 3555:547 JLINK_WriteReg(MSP, 0x20001000)  returns 0x00 (0000ms, 5611ms total)
T216C 3555:547 JLINK_WriteReg(PSP, 0x20001000)  returns 0x00 (0000ms, 5611ms total)
T216C 3555:547 JLINK_WriteReg(CFBP, 0x00000000)  returns 0x00 (0000ms, 5611ms total)
T216C 3555:547 JLINK_SetBPEx(Addr = 0x20000000, Type = 0xFFFFFFF2)  returns 0x00000008 (0000ms, 5611ms total)
T216C 3555:547 JLINK_Go() -- CPU_ReadMem(4 bytes @ 0xE0001000) (0001ms, 5612ms total)
T216C 3555:548 JLINK_IsHalted()  returns FALSE (0001ms, 5613ms total)
T216C 3555:603 JLINK_IsHalted() -- CPU_ReadMem(2 bytes @ 0x20000000)  returns TRUE (0002ms, 5614ms total)
T216C 3555:605 JLINK_ReadReg(R15 (PC))  returns 0x20000000 (0000ms, 5612ms total)
T216C 3555:605 JLINK_ClrBPEx(BPHandle = 0x00000008)  returns 0x00 (0000ms, 5612ms total)
T216C 3555:605 JLINK_ReadReg(R0)  returns 0x00000000 (0000ms, 5612ms total)
T216C 3555:607 JLINK_WriteMem(0x20000188, 0x0278 Bytes, ...) - Data: 00 F0 AF FC 34 48 00 F0 CE FC 70 BD 1C B5 4F F4 ... -- CPU_WriteMem(632 bytes @ 0x20000188)  returns 0x278 (0003ms, 5615ms total)
T216C 3555:610 JLINK_WriteMem(0x20000400, 0x0188 Bytes, ...) - Data: 06 F8 A8 F1 01 08 08 EA 05 08 4C EA 08 02 00 BF ... -- CPU_WriteMem(392 bytes @ 0x20000400)  returns 0x188 (0001ms, 5616ms total)
T216C 3555:611 JLINK_WriteReg(R0, 0x08000400)  returns 0x00 (0000ms, 5616ms total)
T216C 3555:611 JLINK_WriteReg(R1, 0x00000400)  returns 0x00 (0000ms, 5616ms total)
T216C 3555:611 JLINK_WriteReg(R2, 0x20000188)  returns 0x00 (0000ms, 5616ms total)
T216C 3555:611 JLINK_WriteReg(R3, 0x00000000)  returns 0x00 (0000ms, 5616ms total)
T216C 3555:611 JLINK_WriteReg(R4, 0x00000000)  returns 0x00 (0000ms, 5616ms total)
T216C 3555:611 JLINK_WriteReg(R5, 0x00000000)  returns 0x00 (0000ms, 5616ms total)
T216C 3555:611 JLINK_WriteReg(R6, 0x00000000)  returns 0x00 (0000ms, 5616ms total)
T216C 3555:611 JLINK_WriteReg(R7, 0x00000000)  returns 0x00 (0000ms, 5616ms total)
T216C 3555:611 JLINK_WriteReg(R8, 0x00000000)  returns 0x00 (0000ms, 5616ms total)
T216C 3555:611 JLINK_WriteReg(R9, 0x20000184)  returns 0x00 (0000ms, 5616ms total)
T216C 3555:611 JLINK_WriteReg(R10, 0x00000000)  returns 0x00 (0000ms, 5616ms total)
T216C 3555:611 JLINK_WriteReg(R11, 0x00000000)  returns 0x00 (0000ms, 5616ms total)
T216C 3555:611 JLINK_WriteReg(R12, 0x00000000)  returns 0x00 (0000ms, 5616ms total)
T216C 3555:611 JLINK_WriteReg(R13 (SP), 0x20001000)  returns 0x00 (0000ms, 5616ms total)
T216C 3555:611 JLINK_WriteReg(R14, 0x20000001)  returns 0x00 (0000ms, 5616ms total)
T216C 3555:611 JLINK_WriteReg(R15 (PC), 0x20000112)  returns 0x00 (0000ms, 5616ms total)
T216C 3555:612 JLINK_WriteReg(XPSR, 0x01000000)  returns 0x00 (0000ms, 5616ms total)
T216C 3555:612 JLINK_WriteReg(MSP, 0x20001000)  returns 0x00 (0000ms, 5616ms total)
T216C 3555:612 JLINK_WriteReg(PSP, 0x20001000)  returns 0x00 (0000ms, 5616ms total)
T216C 3555:612 JLINK_WriteReg(CFBP, 0x00000000)  returns 0x00 (0000ms, 5616ms total)
T216C 3555:612 JLINK_SetBPEx(Addr = 0x20000000, Type = 0xFFFFFFF2)  returns 0x00000009 (0000ms, 5616ms total)
T216C 3555:612 JLINK_Go() -- CPU_ReadMem(4 bytes @ 0xE0001000) (0001ms, 5617ms total)
T216C 3555:613 JLINK_IsHalted()  returns FALSE (0001ms, 5618ms total)
T216C 3555:640 JLINK_IsHalted() -- CPU_ReadMem(2 bytes @ 0x20000000)  returns TRUE (0002ms, 5619ms total)
T216C 3555:642 JLINK_ReadReg(R15 (PC))  returns 0x20000000 (0000ms, 5617ms total)
T216C 3555:642 JLINK_ClrBPEx(BPHandle = 0x00000009)  returns 0x00 (0000ms, 5617ms total)
T216C 3555:642 JLINK_ReadReg(R0)  returns 0x00000000 (0000ms, 5617ms total)
T216C 3555:644 JLINK_WriteMem(0x20000188, 0x0278 Bytes, ...) - Data: 84 42 06 D1 10 20 00 F0 D6 F8 10 20 00 F0 D9 F8 ... -- CPU_WriteMem(632 bytes @ 0x20000188)  returns 0x278 (0001ms, 5618ms total)
T216C 3555:646 JLINK_WriteMem(0x20000400, 0x0188 Bytes, ...) - Data: 08 60 08 46 00 68 20 F4 00 50 08 60 08 46 00 68 ... -- CPU_WriteMem(392 bytes @ 0x20000400)  returns 0x188 (0001ms, 5619ms total)
T216C 3555:647 JLINK_WriteReg(R0, 0x08000800)  returns 0x00 (0000ms, 5619ms total)
T216C 3555:647 JLINK_WriteReg(R1, 0x00000400)  returns 0x00 (0000ms, 5619ms total)
T216C 3555:647 JLINK_WriteReg(R2, 0x20000188)  returns 0x00 (0000ms, 5619ms total)
T216C 3555:647 JLINK_WriteReg(R3, 0x00000000)  returns 0x00 (0000ms, 5619ms total)
T216C 3555:647 JLINK_WriteReg(R4, 0x00000000)  returns 0x00 (0001ms, 5620ms total)
T216C 3555:648 JLINK_WriteReg(R5, 0x00000000)  returns 0x00 (0000ms, 5620ms total)
T216C 3555:648 JLINK_WriteReg(R6, 0x00000000)  returns 0x00 (0000ms, 5620ms total)
T216C 3555:648 JLINK_WriteReg(R7, 0x00000000)  returns 0x00 (0000ms, 5620ms total)
T216C 3555:648 JLINK_WriteReg(R8, 0x00000000)  returns 0x00 (0000ms, 5620ms total)
T216C 3555:648 JLINK_WriteReg(R9, 0x20000184)  returns 0x00 (0000ms, 5620ms total)
T216C 3555:648 JLINK_WriteReg(R10, 0x00000000)  returns 0x00 (0000ms, 5620ms total)
T216C 3555:648 JLINK_WriteReg(R11, 0x00000000)  returns 0x00 (0000ms, 5620ms total)
T216C 3555:648 JLINK_WriteReg(R12, 0x00000000)  returns 0x00 (0000ms, 5620ms total)
T216C 3555:648 JLINK_WriteReg(R13 (SP), 0x20001000)  returns 0x00 (0000ms, 5620ms total)
T216C 3555:648 JLINK_WriteReg(R14, 0x20000001)  returns 0x00 (0000ms, 5620ms total)
T216C 3555:648 JLINK_WriteReg(R15 (PC), 0x20000112)  returns 0x00 (0000ms, 5620ms total)
T216C 3555:648 JLINK_WriteReg(XPSR, 0x01000000)  returns 0x00 (0000ms, 5620ms total)
T216C 3555:648 JLINK_WriteReg(MSP, 0x20001000)  returns 0x00 (0000ms, 5620ms total)
T216C 3555:648 JLINK_WriteReg(PSP, 0x20001000)  returns 0x00 (0000ms, 5620ms total)
T216C 3555:648 JLINK_WriteReg(CFBP, 0x00000000)  returns 0x00 (0000ms, 5620ms total)
T216C 3555:648 JLINK_SetBPEx(Addr = 0x20000000, Type = 0xFFFFFFF2)  returns 0x0000000A (0000ms, 5620ms total)
T216C 3555:648 JLINK_Go() -- CPU_ReadMem(4 bytes @ 0xE0001000) (0002ms, 5622ms total)
T216C 3555:650 JLINK_IsHalted()  returns FALSE (0001ms, 5623ms total)
T216C 3555:664 JLINK_IsHalted() -- CPU_ReadMem(2 bytes @ 0x20000000)  returns TRUE (0002ms, 5624ms total)
T216C 3555:666 JLINK_ReadReg(R15 (PC))  returns 0x20000000 (0000ms, 5622ms total)
T216C 3555:666 JLINK_ClrBPEx(BPHandle = 0x0000000A)  returns 0x00 (0000ms, 5622ms total)
T216C 3555:666 JLINK_ReadReg(R0)  returns 0x00000000 (0000ms, 5622ms total)
T216C 3555:669 JLINK_WriteMem(0x20000188, 0x0278 Bytes, ...) - Data: 03 F0 3F 03 B1 FB F3 F3 43 4C 84 34 24 68 C4 F3 ... -- CPU_WriteMem(632 bytes @ 0x20000188)  returns 0x278 (0002ms, 5624ms total)
T216C 3555:672 JLINK_WriteMem(0x20000400, 0x0188 Bytes, ...) - Data: 03 D2 30 46 FF F7 96 FF 05 46 ED BB 00 BF 81 48 ... -- CPU_WriteMem(392 bytes @ 0x20000400)  returns 0x188 (0001ms, 5625ms total)
T216C 3555:673 JLINK_WriteReg(R0, 0x08000C00)  returns 0x00 (0000ms, 5625ms total)
T216C 3555:673 JLINK_WriteReg(R1, 0x00000400)  returns 0x00 (0000ms, 5625ms total)
T216C 3555:673 JLINK_WriteReg(R2, 0x20000188)  returns 0x00 (0000ms, 5625ms total)
T216C 3555:673 JLINK_WriteReg(R3, 0x00000000)  returns 0x00 (0000ms, 5625ms total)
T216C 3555:673 JLINK_WriteReg(R4, 0x00000000)  returns 0x00 (0000ms, 5625ms total)
T216C 3555:673 JLINK_WriteReg(R5, 0x00000000)  returns 0x00 (0000ms, 5625ms total)
T216C 3555:673 JLINK_WriteReg(R6, 0x00000000)  returns 0x00 (0001ms, 5626ms total)
T216C 3555:674 JLINK_WriteReg(R7, 0x00000000)  returns 0x00 (0000ms, 5626ms total)
T216C 3555:674 JLINK_WriteReg(R8, 0x00000000)  returns 0x00 (0000ms, 5626ms total)
T216C 3555:674 JLINK_WriteReg(R9, 0x20000184)  returns 0x00 (0000ms, 5626ms total)
T216C 3555:674 JLINK_WriteReg(R10, 0x00000000)  returns 0x00 (0000ms, 5626ms total)
T216C 3555:674 JLINK_WriteReg(R11, 0x00000000)  returns 0x00 (0000ms, 5626ms total)
T216C 3555:674 JLINK_WriteReg(R12, 0x00000000)  returns 0x00 (0000ms, 5626ms total)
T216C 3555:674 JLINK_WriteReg(R13 (SP), 0x20001000)  returns 0x00 (0000ms, 5626ms total)
T216C 3555:674 JLINK_WriteReg(R14, 0x20000001)  returns 0x00 (0000ms, 5626ms total)
T216C 3555:674 JLINK_WriteReg(R15 (PC), 0x20000112)  returns 0x00 (0000ms, 5626ms total)
T216C 3555:674 JLINK_WriteReg(XPSR, 0x01000000)  returns 0x00 (0000ms, 5626ms total)
T216C 3555:674 JLINK_WriteReg(MSP, 0x20001000)  returns 0x00 (0000ms, 5626ms total)
T216C 3555:674 JLINK_WriteReg(PSP, 0x20001000)  returns 0x00 (0000ms, 5626ms total)
T216C 3555:674 JLINK_WriteReg(CFBP, 0x00000000)  returns 0x00 (0000ms, 5626ms total)
T216C 3555:674 JLINK_SetBPEx(Addr = 0x20000000, Type = 0xFFFFFFF2)  returns 0x0000000B (0000ms, 5626ms total)
T216C 3555:674 JLINK_Go() -- CPU_ReadMem(4 bytes @ 0xE0001000) (0002ms, 5628ms total)
T216C 3555:676 JLINK_IsHalted()  returns FALSE (0001ms, 5629ms total)
T216C 3555:697 JLINK_IsHalted() -- CPU_ReadMem(2 bytes @ 0x20000000)  returns TRUE (0002ms, 5630ms total)
T216C 3555:699 JLINK_ReadReg(R15 (PC))  returns 0x20000000 (0000ms, 5628ms total)
T216C 3555:699 JLINK_ClrBPEx(BPHandle = 0x0000000B)  returns 0x00 (0000ms, 5628ms total)
T216C 3555:699 JLINK_ReadReg(R0)  returns 0x00000000 (0000ms, 5628ms total)
T216C 3555:701 JLINK_WriteMem(0x20000188, 0x0278 Bytes, ...) - Data: 00 68 40 F4 80 20 21 49 09 1F 08 60 00 BF 0A E0 ... -- CPU_WriteMem(632 bytes @ 0x20000188)  returns 0x278 (0003ms, 5631ms total)
T216C 3555:704 JLINK_WriteMem(0x20000400, 0x0188 Bytes, ...) - Data: 70 B5 04 46 00 25 78 48 84 42 06 D1 10 20 00 F0 ... -- CPU_WriteMem(392 bytes @ 0x20000400)  returns 0x188 (0000ms, 5631ms total)
T216C 3555:704 JLINK_WriteReg(R0, 0x08001000)  returns 0x00 (0000ms, 5631ms total)
T216C 3555:704 JLINK_WriteReg(R1, 0x00000400)  returns 0x00 (0000ms, 5631ms total)
T216C 3555:705 JLINK_WriteReg(R2, 0x20000188)  returns 0x00 (0000ms, 5632ms total)
T216C 3555:705 JLINK_WriteReg(R3, 0x00000000)  returns 0x00 (0000ms, 5632ms total)
T216C 3555:705 JLINK_WriteReg(R4, 0x00000000)  returns 0x00 (0000ms, 5632ms total)
T216C 3555:705 JLINK_WriteReg(R5, 0x00000000)  returns 0x00 (0000ms, 5632ms total)
T216C 3555:705 JLINK_WriteReg(R6, 0x00000000)  returns 0x00 (0000ms, 5632ms total)
T216C 3555:705 JLINK_WriteReg(R7, 0x00000000)  returns 0x00 (0000ms, 5632ms total)
T216C 3555:705 JLINK_WriteReg(R8, 0x00000000)  returns 0x00 (0000ms, 5632ms total)
T216C 3555:705 JLINK_WriteReg(R9, 0x20000184)  returns 0x00 (0000ms, 5632ms total)
T216C 3555:705 JLINK_WriteReg(R10, 0x00000000)  returns 0x00 (0000ms, 5632ms total)
T216C 3555:705 JLINK_WriteReg(R11, 0x00000000)  returns 0x00 (0000ms, 5632ms total)
T216C 3555:705 JLINK_WriteReg(R12, 0x00000000)  returns 0x00 (0000ms, 5632ms total)
T216C 3555:705 JLINK_WriteReg(R13 (SP), 0x20001000)  returns 0x00 (0000ms, 5632ms total)
T216C 3555:705 JLINK_WriteReg(R14, 0x20000001)  returns 0x00 (0000ms, 5632ms total)
T216C 3555:705 JLINK_WriteReg(R15 (PC), 0x20000112)  returns 0x00 (0000ms, 5632ms total)
T216C 3555:705 JLINK_WriteReg(XPSR, 0x01000000)  returns 0x00 (0000ms, 5632ms total)
T216C 3555:705 JLINK_WriteReg(MSP, 0x20001000)  returns 0x00 (0000ms, 5632ms total)
T216C 3555:705 JLINK_WriteReg(PSP, 0x20001000)  returns 0x00 (0000ms, 5632ms total)
T216C 3555:705 JLINK_WriteReg(CFBP, 0x00000000)  returns 0x00 (0000ms, 5632ms total)
T216C 3555:706 JLINK_SetBPEx(Addr = 0x20000000, Type = 0xFFFFFFF2)  returns 0x0000000C (0000ms, 5632ms total)
T216C 3555:706 JLINK_Go() -- CPU_ReadMem(4 bytes @ 0xE0001000) (0001ms, 5633ms total)
